
T1880 000:277 SEGGER J-Link V6.10i Log File (0000ms, 0075ms total)
T1880 000:277 DLL Compiled: Oct 25 2016 19:31:51 (0000ms, 0075ms total)
T1880 000:277 Logging started @ 2017-10-02 23:19 (0000ms, 0075ms total)
T1880 000:277 JLINK_SetWarnOutHandler(...) (0042ms, 0117ms total)
T1880 000:319 JLINK_OpenEx(...)
Firmware: J-Link V9 compiled Dec 16 2016 15:34:10
Hardware: V9.20
Feature(s): GDB, RDI, FlashBP, FlashDL, JFlashWEBSRV Webserver running on local port 19080 (0015ms, 0132ms total)
T1880 000:319   returns O.K. (0015ms, 0132ms total)
T1880 000:334 JLINK_SetErrorOutHandler(...) (0000ms, 0132ms total)
T1880 000:334 JLINK_ExecCommand("ProjectFile = "D:\programlar\RF Coklu proje\Humidity_Controller\Keil MDK\Humidity\arm\JLinkSettings.ini"", ...). Device "CORTEX-M0+" selected.  returns 0x00 (0194ms, 0326ms total)
T1880 000:530 JLINK_ExecCommand("Device = EFM32ZG222F32", ...). Device "EFM32ZG222F32" selected.  returns 0x00 (0001ms, 0327ms total)
T1880 000:531 JLINK_ExecCommand("DisableConnectionTimeout", ...).   returns 0x01 (0000ms, 0327ms total)
T1880 000:531 JLINK_GetHardwareVersion()  returns 0x16760 (0000ms, 0327ms total)
T1880 000:531 JLINK_GetDLLVersion()  returns 61009 (0000ms, 0327ms total)
T1880 000:531 JLINK_GetFirmwareString(...) (0000ms, 0327ms total)
T1880 000:536 JLINK_GetDLLVersion()  returns 61009 (0000ms, 0327ms total)
T1880 000:536 JLINK_GetCompileDateTime() (0000ms, 0327ms total)
T1880 000:538 JLINK_GetFirmwareString(...) (0000ms, 0327ms total)
T1880 000:539 JLINK_GetHardwareVersion()  returns 0x16760 (0000ms, 0327ms total)
T1880 000:543 JLINK_TIF_Select(JLINKARM_TIF_SWD)  returns 0x00 (0002ms, 0329ms total)
T1880 000:545 JLINK_SetSpeed(5000) (0001ms, 0330ms total)
T1880 000:546 JLINK_GetId() >0x108 TIF>Found SWD-DP with ID 0x0BC11477 >0x0D TIF> >0x28 TIF> >0x0D TIF> >0x28 TIF> >0x0D TIF> >0x28 TIF> >0x0D TIF> >0x28 TIF> >0x0D TIF> >0x28 TIF> >0x0D TIF> >0x21 TIF> >0x0D TIF> >0x21 TIF> >0x0D TIF> >0x28 TIF> >0x0D TIF> >0x21 TIF> >0x0D TIF> >0x21 TIF> >0x108 TIF>Found SWD-DP with ID 0x0BC11477 >0x0D TIF> >0x28 TIF> >0x0D TIF> >0x28 TIF> >0x0D TIF> >0x28 TIF> >0x0D TIF> >0x28 TIF> >0x0D TIF> >0x21 TIF> >0x0D TIF> >0x28 TIF> >0x0D TIF> >0x28 TIF> >0x0D TIF> >0x21 TIF>
 >0x0D TIF> >0x21 TIF> >0x0D TIF> >0x21 TIF>AP-IDR: 0x04770031, Type: AHB-AP >0x0D TIF> >0x28 TIF> >0x0D TIF> >0x28 TIF> >0x0D TIF> >0x28 TIF> >0x0D TIF> >0x21 TIF> >0x0D TIF> >0x21 TIF> >0x0D TIF> >0x28 TIF> >0x0D TIF> >0x21 TIF> >0x0D TIF> >0x21 TIF>Found Cortex-M0 r0p1, Little endian. -- CPU_ReadMem(4 bytes @ 0xE000EDF0) -- CPU_WriteMem(4 bytes @ 0xE000EDF0) -- CPU_ReadMem(4 bytes @ 0xE0002000)FPUnit: 4 code (BP) slots and 0 literal slots -- CPU_ReadMem(4 bytes @ 0xE000EDFC)
 -- CPU_WriteMem(4 bytes @ 0xE000EDFC) -- CPU_ReadMem(4 bytes @ 0xE0001000) -- CPU_WriteMem(4 bytes @ 0xE0001000)CoreSight components:ROMTbl 0 @ F0F00000 -- CPU_ReadMem(16 bytes @ 0xF0F00000) -- CPU_ReadMem(16 bytes @ 0xE00FFFF0) -- CPU_ReadMem(16 bytes @ 0xE00FFFE0)ROMTbl 0 [0]: EF1FF000, CID: B105100D, PID: 000BB4C0 ROM TableROMTbl 1 @ E00FF000 -- CPU_ReadMem(16 bytes @ 0xE00FF000) -- CPU_ReadMem(16 bytes @ 0xE000EFF0) -- CPU_ReadMem(16 bytes @ 0xE000EFE0)
ROMTbl 1 [0]: FFF0F000, CID: B105E00D, PID: 000BB008 SCS -- CPU_ReadMem(16 bytes @ 0xE0001FF0) -- CPU_ReadMem(16 bytes @ 0xE0001FE0)ROMTbl 1 [1]: FFF02000, CID: B105E00D, PID: 000BB00A DWT -- CPU_ReadMem(16 bytes @ 0xE0002FF0) -- CPU_ReadMem(16 bytes @ 0xE0002FE0)ROMTbl 1 [2]: FFF03000, CID: B105E00D, PID: 000BB00B FPB >0x0D TIF> >0x21 TIF>  returns 0x0BC11477 (0071ms, 0401ms total)
T1880 000:617 JLINK_GetDLLVersion()  returns 61009 (0000ms, 0401ms total)
T1880 000:617 JLINK_CORE_GetFound()  returns 0x60000FF (0000ms, 0401ms total)
T1880 000:617 JLINK_GetDebugInfo(0x100) -- Value=0xF0F00000  returns 0x00 (0000ms, 0401ms total)
T1880 000:619 JLINK_GetDebugInfo(0x100) -- Value=0xF0F00000  returns 0x00 (0000ms, 0401ms total)
T1880 000:619 JLINK_GetDebugInfo(0x101) -- Value=0x00000000  returns 0x00 (0000ms, 0401ms total)
T1880 000:619 JLINK_ReadMem (0xE0041FF0, 0x0010 Bytes, ...) -- CPU is running -- CPU_ReadMem(16 bytes @ 0xE0041FF0) - Data: 00 00 00 00 00 00 00 00 00 00 00 00 00 00 00 00  returns 0x00 (0000ms, 0401ms total)
T1880 000:619 JLINK_GetDebugInfo(0x102) -- Value=0x00000000  returns 0x00 (0000ms, 0401ms total)
T1880 000:619 JLINK_GetDebugInfo(0x103) -- Value=0x00000000  returns 0x00 (0000ms, 0401ms total)
T1880 000:619 JLINK_ReadMem (0xE0040FF0, 0x0010 Bytes, ...) -- CPU is running -- CPU_ReadMem(16 bytes @ 0xE0040FF0) - Data: 00 00 00 00 00 00 00 00 00 00 00 00 00 00 00 00  returns 0x00 (0001ms, 0402ms total)
T1880 000:620 JLINK_GetDebugInfo(0x104) -- Value=0xE0000000  returns 0x00 (0000ms, 0402ms total)
T1880 000:620 JLINK_GetDebugInfo(0x105) -- Value=0xE0001000  returns 0x00 (0000ms, 0402ms total)
T1880 000:620 JLINK_GetDebugInfo(0x106) -- Value=0xE0002000  returns 0x00 (0000ms, 0402ms total)
T1880 000:620 JLINK_GetDebugInfo(0x107) -- Value=0xE000E000  returns 0x00 (0000ms, 0402ms total)
T1880 000:620 JLINK_GetDebugInfo(0x10C) -- Value=0xE000EDF0  returns 0x00 (0000ms, 0402ms total)
T1880 000:620 JLINK_ReadMemU32(0xE000ED00, 0x0001 Items, ...) -- CPU is running -- CPU_ReadMem(4 bytes @ 0xE000ED00) - Data: 01 C6 0C 41  returns 0x01 (0000ms, 0402ms total)
T1880 000:620 JLINK_SetResetType(JLINKARM_RESET_TYPE_NORMAL)  returns JLINKARM_RESET_TYPE_NORMAL (0000ms, 0402ms total)
T1880 000:620 JLINK_Reset() -- CPU is running -- CPU_WriteMem(4 bytes @ 0xE000EDF0) -- CPU is running -- CPU_WriteMem(4 bytes @ 0xE000EDFC) >0x35 TIF> -- CPU is running -- CPU_WriteMem(4 bytes @ 0xE000ED0C) -- CPU is running -- CPU_ReadMem(4 bytes @ 0xE000EDF0) -- CPU is running -- CPU_ReadMem(4 bytes @ 0xE000EDF0) -- CPU is running -- CPU_WriteMem(4 bytes @ 0xE000EDF0) -- CPU is running -- CPU_WriteMem(4 bytes @ 0xE000EDFC) -- CPU is running -- CPU_ReadMem(4 bytes @ 0xE000EDF0)
 -- CPU_WriteMem(4 bytes @ 0xE0002000) -- CPU_ReadMem(4 bytes @ 0xE000EDFC) -- CPU_ReadMem(4 bytes @ 0xE0001000) -- CPU_WriteMem(4 bytes @ 0xE0001000) (0017ms, 0419ms total)
T1880 000:637 JLINK_Halt()  returns 0x00 (0000ms, 0419ms total)
T1880 000:637 JLINK_IsHalted()  returns TRUE (0000ms, 0419ms total)
T1880 000:637 JLINK_ReadMemU32(0xE000EDF0, 0x0001 Items, ...) -- CPU_ReadMem(4 bytes @ 0xE000EDF0) - Data: 03 00 03 00  returns 0x01 (0000ms, 0419ms total)
T1880 000:637 JLINK_WriteU32(0xE000EDF0, 0xA05F0003) -- CPU_WriteMem(4 bytes @ 0xE000EDF0)  returns 0x00 (0001ms, 0420ms total)
T1880 000:638 JLINK_WriteU32(0xE000EDFC, 0x01000000) -- CPU_WriteMem(4 bytes @ 0xE000EDFC)  returns 0x00 (0000ms, 0420ms total)
T1880 000:643 JLINK_GetHWStatus(...)  returns 0x00 (0000ms, 0420ms total)
T1880 000:647 JLINK_GetNumBPUnits(Type = 0xFFFFFF00)  returns 0x04 (0000ms, 0420ms total)
T1880 000:647 JLINK_GetNumBPUnits(Type = 0xF0)  returns 0x2000 (0000ms, 0420ms total)
T1880 000:647 JLINK_GetNumWPUnits()  returns 0x02 (0000ms, 0420ms total)
T1880 000:651 JLINK_GetSpeed()  returns 0xFA0 (0000ms, 0420ms total)
T1880 000:653 JLINK_ReadMemU32(0xE000E004, 0x0001 Items, ...) -- CPU_ReadMem(4 bytes @ 0xE000E004) - Data: 00 00 00 00  returns 0x01 (0001ms, 0421ms total)
T1880 000:654 JLINK_Halt()  returns 0x00 (0000ms, 0421ms total)
T1880 000:654 JLINK_IsHalted()  returns TRUE (0000ms, 0421ms total)
T1880 000:706 JLINK_WriteMem(0x20000000, 0x01C4 Bytes, ...) - Data: 00 BE 0A E0 0D 78 2D 06 68 40 08 24 40 00 00 D3 ... -- CPU_WriteMem(452 bytes @ 0x20000000)  returns 0x1C4 (0002ms, 0423ms total)
T1880 000:708 JLINK_WriteReg(R0, 0x00000000)  returns 0x00 (0000ms, 0423ms total)
T1880 000:708 JLINK_WriteReg(R1, 0x016E3600)  returns 0x00 (0000ms, 0423ms total)
T1880 000:708 JLINK_WriteReg(R2, 0x00000001)  returns 0x00 (0000ms, 0423ms total)
T1880 000:708 JLINK_WriteReg(R3, 0x00000000)  returns 0x00 (0000ms, 0423ms total)
T1880 000:708 JLINK_WriteReg(R4, 0x00000000)  returns 0x00 (0000ms, 0423ms total)
T1880 000:708 JLINK_WriteReg(R5, 0x00000000)  returns 0x00 (0000ms, 0423ms total)
T1880 000:708 JLINK_WriteReg(R6, 0x00000000)  returns 0x00 (0000ms, 0423ms total)
T1880 000:708 JLINK_WriteReg(R7, 0x00000000)  returns 0x00 (0000ms, 0423ms total)
T1880 000:708 JLINK_WriteReg(R8, 0x00000000)  returns 0x00 (0000ms, 0423ms total)
T1880 000:708 JLINK_WriteReg(R9, 0x200001C0)  returns 0x00 (0000ms, 0423ms total)
T1880 000:708 JLINK_WriteReg(R10, 0x00000000)  returns 0x00 (0001ms, 0424ms total)
T1880 000:709 JLINK_WriteReg(R11, 0x00000000)  returns 0x00 (0000ms, 0424ms total)
T1880 000:709 JLINK_WriteReg(R12, 0x00000000)  returns 0x00 (0000ms, 0424ms total)
T1880 000:709 JLINK_WriteReg(R13 (SP), 0x20000800)  returns 0x00 (0000ms, 0424ms total)
T1880 000:709 JLINK_WriteReg(R14, 0x20000001)  returns 0x00 (0000ms, 0424ms total)
T1880 000:709 JLINK_WriteReg(R15 (PC), 0x20000082)  returns 0x00 (0000ms, 0424ms total)
T1880 000:709 JLINK_WriteReg(XPSR, 0x01000000)  returns 0x00 (0000ms, 0424ms total)
T1880 000:709 JLINK_WriteReg(MSP, 0x20000800)  returns 0x00 (0000ms, 0424ms total)
T1880 000:709 JLINK_WriteReg(PSP, 0x20000800)  returns 0x00 (0000ms, 0424ms total)
T1880 000:709 JLINK_WriteReg(CFBP, 0x00000000)  returns 0x00 (0000ms, 0424ms total)
T1880 000:709 JLINK_SetBPEx(Addr = 0x20000000, Type = 0xFFFFFFF2) -- CPU_ReadMem(2 bytes @ 0x20000000)  returns 0x00000001 (0000ms, 0424ms total)
T1880 000:709 JLINK_Go() -- CPU_WriteMem(2 bytes @ 0x20000000) -- CPU_ReadMem(4 bytes @ 0xE0001000) -- CPU_WriteMem(4 bytes @ 0xE0001000) -- CPU_WriteMem(4 bytes @ 0xE0002008) -- CPU_WriteMem(4 bytes @ 0xE000200C) -- CPU_WriteMem(4 bytes @ 0xE0002010) -- CPU_WriteMem(4 bytes @ 0xE0002014) -- CPU_WriteMem(4 bytes @ 0xE0001004) (0005ms, 0429ms total)
T1880 000:714 JLINK_IsHalted() -- CPU_ReadMem(2 bytes @ 0x20000000)  returns TRUE (0003ms, 0432ms total)
T1880 000:717 JLINK_ReadReg(R15 (PC))  returns 0x20000000 (0000ms, 0429ms total)
T1880 000:717 JLINK_ClrBPEx(BPHandle = 0x00000001)  returns 0x00 (0000ms, 0429ms total)
T1880 000:717 JLINK_ReadReg(R0)  returns 0x00000000 (0000ms, 0429ms total)
T1880 001:208 JLINK_WriteReg(R0, 0x00000000)  returns 0x00 (0000ms, 0429ms total)
T1880 001:208 JLINK_WriteReg(R1, 0x016E3600)  returns 0x00 (0000ms, 0429ms total)
T1880 001:208 JLINK_WriteReg(R2, 0x00000001)  returns 0x00 (0000ms, 0429ms total)
T1880 001:208 JLINK_WriteReg(R3, 0x00000000)  returns 0x00 (0000ms, 0429ms total)
T1880 001:208 JLINK_WriteReg(R4, 0x00000000)  returns 0x00 (0000ms, 0429ms total)
T1880 001:208 JLINK_WriteReg(R5, 0x00000000)  returns 0x00 (0000ms, 0429ms total)
T1880 001:208 JLINK_WriteReg(R6, 0x00000000)  returns 0x00 (0000ms, 0429ms total)
T1880 001:208 JLINK_WriteReg(R7, 0x00000000)  returns 0x00 (0000ms, 0429ms total)
T1880 001:208 JLINK_WriteReg(R8, 0x00000000)  returns 0x00 (0000ms, 0429ms total)
T1880 001:208 JLINK_WriteReg(R9, 0x200001C0)  returns 0x00 (0000ms, 0429ms total)
T1880 001:208 JLINK_WriteReg(R10, 0x00000000)  returns 0x00 (0000ms, 0429ms total)
T1880 001:208 JLINK_WriteReg(R11, 0x00000000)  returns 0x00 (0000ms, 0429ms total)
T1880 001:208 JLINK_WriteReg(R12, 0x00000000)  returns 0x00 (0000ms, 0429ms total)
T1880 001:208 JLINK_WriteReg(R13 (SP), 0x20000800)  returns 0x00 (0000ms, 0429ms total)
T1880 001:208 JLINK_WriteReg(R14, 0x20000001)  returns 0x00 (0000ms, 0429ms total)
T1880 001:208 JLINK_WriteReg(R15 (PC), 0x2000009A)  returns 0x00 (0000ms, 0429ms total)
T1880 001:208 JLINK_WriteReg(XPSR, 0x01000000)  returns 0x00 (0000ms, 0429ms total)
T1880 001:208 JLINK_WriteReg(MSP, 0x20000800)  returns 0x00 (0000ms, 0429ms total)
T1880 001:208 JLINK_WriteReg(PSP, 0x20000800)  returns 0x00 (0000ms, 0429ms total)
T1880 001:208 JLINK_WriteReg(CFBP, 0x00000000)  returns 0x00 (0000ms, 0429ms total)
T1880 001:208 JLINK_SetBPEx(Addr = 0x20000000, Type = 0xFFFFFFF2)  returns 0x00000002 (0000ms, 0429ms total)
T1880 001:208 JLINK_Go() -- CPU_ReadMem(4 bytes @ 0xE0001000) -- CPU_WriteMem(4 bytes @ 0xE0001000) (0003ms, 0432ms total)
T1880 001:211 JLINK_IsHalted()  returns FALSE (0001ms, 0433ms total)
T1880 001:277 JLINK_IsHalted() -- CPU_ReadMem(2 bytes @ 0x20000000)  returns TRUE (0002ms, 0434ms total)
T1880 001:279 JLINK_ReadReg(R15 (PC))  returns 0x20000000 (0000ms, 0432ms total)
T1880 001:279 JLINK_ClrBPEx(BPHandle = 0x00000002)  returns 0x00 (0000ms, 0432ms total)
T1880 001:279 JLINK_ReadReg(R0)  returns 0x00000000 (0000ms, 0432ms total)
T1880 001:330 JLINK_WriteReg(R0, 0x00000001)  returns 0x00 (0000ms, 0432ms total)
T1880 001:330 JLINK_WriteReg(R1, 0x016E3600)  returns 0x00 (0000ms, 0432ms total)
T1880 001:330 JLINK_WriteReg(R2, 0x00000001)  returns 0x00 (0000ms, 0432ms total)
T1880 001:330 JLINK_WriteReg(R3, 0x00000000)  returns 0x00 (0000ms, 0432ms total)
T1880 001:330 JLINK_WriteReg(R4, 0x00000000)  returns 0x00 (0000ms, 0432ms total)
T1880 001:330 JLINK_WriteReg(R5, 0x00000000)  returns 0x00 (0000ms, 0432ms total)
T1880 001:330 JLINK_WriteReg(R6, 0x00000000)  returns 0x00 (0000ms, 0432ms total)
T1880 001:330 JLINK_WriteReg(R7, 0x00000000)  returns 0x00 (0000ms, 0432ms total)
T1880 001:330 JLINK_WriteReg(R8, 0x00000000)  returns 0x00 (0000ms, 0432ms total)
T1880 001:330 JLINK_WriteReg(R9, 0x200001C0)  returns 0x00 (0000ms, 0432ms total)
T1880 001:330 JLINK_WriteReg(R10, 0x00000000)  returns 0x00 (0000ms, 0432ms total)
T1880 001:330 JLINK_WriteReg(R11, 0x00000000)  returns 0x00 (0000ms, 0432ms total)
T1880 001:330 JLINK_WriteReg(R12, 0x00000000)  returns 0x00 (0000ms, 0432ms total)
T1880 001:330 JLINK_WriteReg(R13 (SP), 0x20000800)  returns 0x00 (0000ms, 0432ms total)
T1880 001:330 JLINK_WriteReg(R14, 0x20000001)  returns 0x00 (0000ms, 0432ms total)
T1880 001:330 JLINK_WriteReg(R15 (PC), 0x2000008C)  returns 0x00 (0000ms, 0432ms total)
T1880 001:330 JLINK_WriteReg(XPSR, 0x01000000)  returns 0x00 (0000ms, 0432ms total)
T1880 001:330 JLINK_WriteReg(MSP, 0x20000800)  returns 0x00 (0000ms, 0432ms total)
T1880 001:330 JLINK_WriteReg(PSP, 0x20000800)  returns 0x00 (0000ms, 0432ms total)
T1880 001:330 JLINK_WriteReg(CFBP, 0x00000000)  returns 0x00 (0000ms, 0432ms total)
T1880 001:330 JLINK_SetBPEx(Addr = 0x20000000, Type = 0xFFFFFFF2)  returns 0x00000003 (0001ms, 0433ms total)
T1880 001:331 JLINK_Go() -- CPU_ReadMem(4 bytes @ 0xE0001000) -- CPU_WriteMem(4 bytes @ 0xE0001000) (0002ms, 0435ms total)
T1880 001:333 JLINK_IsHalted() -- CPU_ReadMem(2 bytes @ 0x20000000)  returns TRUE (0002ms, 0437ms total)
T1880 001:335 JLINK_ReadReg(R15 (PC))  returns 0x20000000 (0000ms, 0435ms total)
T1880 001:335 JLINK_ClrBPEx(BPHandle = 0x00000003)  returns 0x00 (0000ms, 0435ms total)
T1880 001:335 JLINK_ReadReg(R0)  returns 0x00000000 (0000ms, 0435ms total)
T1880 001:339 JLINK_WriteMem(0x20000000, 0x01C4 Bytes, ...) - Data: 00 BE 0A E0 0D 78 2D 06 68 40 08 24 40 00 00 D3 ... -- CPU_WriteMem(452 bytes @ 0x20000000)  returns 0x1C4 (0003ms, 0438ms total)
T1880 001:342 JLINK_WriteReg(R0, 0x00000000)  returns 0x00 (0000ms, 0438ms total)
T1880 001:342 JLINK_WriteReg(R1, 0x016E3600)  returns 0x00 (0000ms, 0438ms total)
T1880 001:342 JLINK_WriteReg(R2, 0x00000002)  returns 0x00 (0000ms, 0438ms total)
T1880 001:342 JLINK_WriteReg(R3, 0x00000000)  returns 0x00 (0000ms, 0438ms total)
T1880 001:342 JLINK_WriteReg(R4, 0x00000000)  returns 0x00 (0000ms, 0438ms total)
T1880 001:342 JLINK_WriteReg(R5, 0x00000000)  returns 0x00 (0000ms, 0438ms total)
T1880 001:342 JLINK_WriteReg(R6, 0x00000000)  returns 0x00 (0000ms, 0438ms total)
T1880 001:342 JLINK_WriteReg(R7, 0x00000000)  returns 0x00 (0000ms, 0438ms total)
T1880 001:342 JLINK_WriteReg(R8, 0x00000000)  returns 0x00 (0000ms, 0438ms total)
T1880 001:342 JLINK_WriteReg(R9, 0x200001C0)  returns 0x00 (0000ms, 0438ms total)
T1880 001:342 JLINK_WriteReg(R10, 0x00000000)  returns 0x00 (0000ms, 0438ms total)
T1880 001:342 JLINK_WriteReg(R11, 0x00000000)  returns 0x00 (0000ms, 0438ms total)
T1880 001:342 JLINK_WriteReg(R12, 0x00000000)  returns 0x00 (0000ms, 0438ms total)
T1880 001:342 JLINK_WriteReg(R13 (SP), 0x20000800)  returns 0x00 (0000ms, 0438ms total)
T1880 001:342 JLINK_WriteReg(R14, 0x20000001)  returns 0x00 (0000ms, 0438ms total)
T1880 001:342 JLINK_WriteReg(R15 (PC), 0x20000082)  returns 0x00 (0000ms, 0438ms total)
T1880 001:342 JLINK_WriteReg(XPSR, 0x01000000)  returns 0x00 (0000ms, 0438ms total)
T1880 001:342 JLINK_WriteReg(MSP, 0x20000800)  returns 0x00 (0000ms, 0438ms total)
T1880 001:342 JLINK_WriteReg(PSP, 0x20000800)  returns 0x00 (0000ms, 0438ms total)
T1880 001:342 JLINK_WriteReg(CFBP, 0x00000000)  returns 0x00 (0000ms, 0438ms total)
T1880 001:342 JLINK_SetBPEx(Addr = 0x20000000, Type = 0xFFFFFFF2) -- CPU_ReadMem(2 bytes @ 0x20000000)  returns 0x00000004 (0001ms, 0439ms total)
T1880 001:343 JLINK_Go() -- CPU_WriteMem(2 bytes @ 0x20000000) -- CPU_ReadMem(4 bytes @ 0xE0001000) -- CPU_WriteMem(4 bytes @ 0xE0001000) (0003ms, 0442ms total)
T1880 001:346 JLINK_IsHalted() -- CPU_ReadMem(2 bytes @ 0x20000000)  returns TRUE (0003ms, 0445ms total)
T1880 001:349 JLINK_ReadReg(R15 (PC))  returns 0x20000000 (0000ms, 0442ms total)
T1880 001:349 JLINK_ClrBPEx(BPHandle = 0x00000004)  returns 0x00 (0000ms, 0442ms total)
T1880 001:349 JLINK_ReadReg(R0)  returns 0x00000000 (0000ms, 0442ms total)
T1880 001:349 JLINK_WriteMem(0x200001C4, 0x023C Bytes, ...) - Data: A0 07 00 20 BD 01 00 00 C5 01 00 00 C7 01 00 00 ... -- CPU_WriteMem(572 bytes @ 0x200001C4)  returns 0x23C (0003ms, 0445ms total)
T1880 001:352 JLINK_WriteMem(0x20000400, 0x01C4 Bytes, ...) - Data: 00 95 03 90 02 A8 01 81 01 A9 05 91 00 21 01 82 ... -- CPU_WriteMem(452 bytes @ 0x20000400)  returns 0x1C4 (0002ms, 0447ms total)
T1880 001:354 JLINK_WriteReg(R0, 0x00000000)  returns 0x00 (0000ms, 0447ms total)
T1880 001:354 JLINK_WriteReg(R1, 0x00000400)  returns 0x00 (0000ms, 0447ms total)
T1880 001:354 JLINK_WriteReg(R2, 0x200001C4)  returns 0x00 (0000ms, 0447ms total)
T1880 001:354 JLINK_WriteReg(R3, 0x00000000)  returns 0x00 (0000ms, 0447ms total)
T1880 001:354 JLINK_WriteReg(R4, 0x00000000)  returns 0x00 (0000ms, 0447ms total)
T1880 001:354 JLINK_WriteReg(R5, 0x00000000)  returns 0x00 (0000ms, 0447ms total)
T1880 001:354 JLINK_WriteReg(R6, 0x00000000)  returns 0x00 (0000ms, 0447ms total)
T1880 001:354 JLINK_WriteReg(R7, 0x00000000)  returns 0x00 (0000ms, 0447ms total)
T1880 001:354 JLINK_WriteReg(R8, 0x00000000)  returns 0x00 (0000ms, 0447ms total)
T1880 001:354 JLINK_WriteReg(R9, 0x200001C0)  returns 0x00 (0000ms, 0447ms total)
T1880 001:354 JLINK_WriteReg(R10, 0x00000000)  returns 0x00 (0000ms, 0447ms total)
T1880 001:354 JLINK_WriteReg(R11, 0x00000000)  returns 0x00 (0000ms, 0447ms total)
T1880 001:354 JLINK_WriteReg(R12, 0x00000000)  returns 0x00 (0000ms, 0447ms total)
T1880 001:354 JLINK_WriteReg(R13 (SP), 0x20000800)  returns 0x00 (0000ms, 0447ms total)
T1880 001:354 JLINK_WriteReg(R14, 0x20000001)  returns 0x00 (0000ms, 0447ms total)
T1880 001:354 JLINK_WriteReg(R15 (PC), 0x20000108)  returns 0x00 (0000ms, 0447ms total)
T1880 001:354 JLINK_WriteReg(XPSR, 0x01000000)  returns 0x00 (0000ms, 0447ms total)
T1880 001:354 JLINK_WriteReg(MSP, 0x20000800)  returns 0x00 (0000ms, 0447ms total)
T1880 001:354 JLINK_WriteReg(PSP, 0x20000800)  returns 0x00 (0000ms, 0447ms total)
T1880 001:354 JLINK_WriteReg(CFBP, 0x00000000)  returns 0x00 (0000ms, 0447ms total)
T1880 001:354 JLINK_SetBPEx(Addr = 0x20000000, Type = 0xFFFFFFF2)  returns 0x00000005 (0000ms, 0447ms total)
T1880 001:354 JLINK_Go() -- CPU_ReadMem(4 bytes @ 0xE0001000) -- CPU_WriteMem(4 bytes @ 0xE0001000) (0003ms, 0450ms total)
T1880 001:357 JLINK_IsHalted()  returns FALSE (0000ms, 0450ms total)
T1880 001:362 JLINK_IsHalted()  returns FALSE (0000ms, 0450ms total)
T1880 001:363 JLINK_IsHalted()  returns FALSE (0000ms, 0450ms total)
T1880 001:364 JLINK_IsHalted() -- CPU_ReadMem(2 bytes @ 0x20000000)  returns TRUE (0002ms, 0452ms total)
T1880 001:367 JLINK_ReadReg(R15 (PC))  returns 0x20000000 (0000ms, 0450ms total)
T1880 001:367 JLINK_ClrBPEx(BPHandle = 0x00000005)  returns 0x00 (0000ms, 0450ms total)
T1880 001:367 JLINK_ReadReg(R0)  returns 0x00000000 (0000ms, 0450ms total)
T1880 001:367 JLINK_WriteMem(0x200001C4, 0x023C Bytes, ...) - Data: 38 46 00 F0 A1 F8 06 46 00 2E 02 D0 30 46 07 B0 ... -- CPU_WriteMem(572 bytes @ 0x200001C4)  returns 0x23C (0003ms, 0453ms total)
T1880 001:370 JLINK_WriteMem(0x20000400, 0x01C4 Bytes, ...) - Data: 20 40 00 28 04 D0 01 22 0A 21 04 20 FF F7 AC FF ... -- CPU_WriteMem(452 bytes @ 0x20000400)  returns 0x1C4 (0002ms, 0455ms total)
T1880 001:372 JLINK_WriteReg(R0, 0x00000400)  returns 0x00 (0000ms, 0455ms total)
T1880 001:372 JLINK_WriteReg(R1, 0x00000400)  returns 0x00 (0000ms, 0455ms total)
T1880 001:372 JLINK_WriteReg(R2, 0x200001C4)  returns 0x00 (0000ms, 0455ms total)
T1880 001:372 JLINK_WriteReg(R3, 0x00000000)  returns 0x00 (0000ms, 0455ms total)
T1880 001:372 JLINK_WriteReg(R4, 0x00000000)  returns 0x00 (0000ms, 0455ms total)
T1880 001:372 JLINK_WriteReg(R5, 0x00000000)  returns 0x00 (0000ms, 0455ms total)
T1880 001:372 JLINK_WriteReg(R6, 0x00000000)  returns 0x00 (0000ms, 0455ms total)
T1880 001:372 JLINK_WriteReg(R7, 0x00000000)  returns 0x00 (0000ms, 0455ms total)
T1880 001:372 JLINK_WriteReg(R8, 0x00000000)  returns 0x00 (0000ms, 0455ms total)
T1880 001:372 JLINK_WriteReg(R9, 0x200001C0)  returns 0x00 (0000ms, 0455ms total)
T1880 001:372 JLINK_WriteReg(R10, 0x00000000)  returns 0x00 (0000ms, 0455ms total)
T1880 001:372 JLINK_WriteReg(R11, 0x00000000)  returns 0x00 (0000ms, 0455ms total)
T1880 001:372 JLINK_WriteReg(R12, 0x00000000)  returns 0x00 (0000ms, 0455ms total)
T1880 001:372 JLINK_WriteReg(R13 (SP), 0x20000800)  returns 0x00 (0000ms, 0455ms total)
T1880 001:372 JLINK_WriteReg(R14, 0x20000001)  returns 0x00 (0000ms, 0455ms total)
T1880 001:372 JLINK_WriteReg(R15 (PC), 0x20000108)  returns 0x00 (0000ms, 0455ms total)
T1880 001:372 JLINK_WriteReg(XPSR, 0x01000000)  returns 0x00 (0000ms, 0455ms total)
T1880 001:372 JLINK_WriteReg(MSP, 0x20000800)  returns 0x00 (0000ms, 0455ms total)
T1880 001:372 JLINK_WriteReg(PSP, 0x20000800)  returns 0x00 (0000ms, 0455ms total)
T1880 001:372 JLINK_WriteReg(CFBP, 0x00000000)  returns 0x00 (0000ms, 0455ms total)
T1880 001:372 JLINK_SetBPEx(Addr = 0x20000000, Type = 0xFFFFFFF2)  returns 0x00000006 (0000ms, 0455ms total)
T1880 001:372 JLINK_Go() -- CPU_ReadMem(4 bytes @ 0xE0001000) -- CPU_WriteMem(4 bytes @ 0xE0001000) (0002ms, 0457ms total)
T1880 001:374 JLINK_IsHalted()  returns FALSE (0001ms, 0458ms total)
T1880 001:376 JLINK_IsHalted()  returns FALSE (0000ms, 0457ms total)
T1880 001:377 JLINK_IsHalted()  returns FALSE (0000ms, 0457ms total)
T1880 001:378 JLINK_IsHalted()  returns FALSE (0000ms, 0457ms total)
T1880 001:379 JLINK_IsHalted()  returns FALSE (0000ms, 0457ms total)
T1880 001:380 JLINK_IsHalted()  returns FALSE (0000ms, 0457ms total)
T1880 001:381 JLINK_IsHalted()  returns FALSE (0000ms, 0457ms total)
T1880 001:382 JLINK_IsHalted() -- CPU_ReadMem(2 bytes @ 0x20000000)  returns TRUE (0002ms, 0459ms total)
T1880 001:384 JLINK_ReadReg(R15 (PC))  returns 0x20000000 (0000ms, 0457ms total)
T1880 001:384 JLINK_ClrBPEx(BPHandle = 0x00000006)  returns 0x00 (0000ms, 0457ms total)
T1880 001:384 JLINK_ReadReg(R0)  returns 0x00000000 (0000ms, 0457ms total)
T1880 001:385 JLINK_WriteMem(0x200001C4, 0x023C Bytes, ...) - Data: FF F7 D0 FE 01 22 05 21 08 46 FF F7 CB FE FF F7 ... -- CPU_WriteMem(572 bytes @ 0x200001C4)  returns 0x23C (0002ms, 0459ms total)
T1880 001:387 JLINK_WriteMem(0x20000400, 0x01C4 Bytes, ...) - Data: 00 23 04 22 0C 21 10 46 01 F0 6D F8 0C 21 04 20 ... -- CPU_WriteMem(452 bytes @ 0x20000400)  returns 0x1C4 (0002ms, 0461ms total)
T1880 001:390 JLINK_WriteReg(R0, 0x00000800)  returns 0x00 (0000ms, 0461ms total)
T1880 001:390 JLINK_WriteReg(R1, 0x00000400)  returns 0x00 (0000ms, 0461ms total)
T1880 001:390 JLINK_WriteReg(R2, 0x200001C4)  returns 0x00 (0000ms, 0461ms total)
T1880 001:390 JLINK_WriteReg(R3, 0x00000000)  returns 0x00 (0000ms, 0461ms total)
T1880 001:390 JLINK_WriteReg(R4, 0x00000000)  returns 0x00 (0000ms, 0461ms total)
T1880 001:390 JLINK_WriteReg(R5, 0x00000000)  returns 0x00 (0000ms, 0461ms total)
T1880 001:390 JLINK_WriteReg(R6, 0x00000000)  returns 0x00 (0000ms, 0461ms total)
T1880 001:390 JLINK_WriteReg(R7, 0x00000000)  returns 0x00 (0000ms, 0461ms total)
T1880 001:390 JLINK_WriteReg(R8, 0x00000000)  returns 0x00 (0000ms, 0461ms total)
T1880 001:390 JLINK_WriteReg(R9, 0x200001C0)  returns 0x00 (0000ms, 0461ms total)
T1880 001:390 JLINK_WriteReg(R10, 0x00000000)  returns 0x00 (0000ms, 0461ms total)
T1880 001:390 JLINK_WriteReg(R11, 0x00000000)  returns 0x00 (0000ms, 0461ms total)
T1880 001:390 JLINK_WriteReg(R12, 0x00000000)  returns 0x00 (0000ms, 0461ms total)
T1880 001:390 JLINK_WriteReg(R13 (SP), 0x20000800)  returns 0x00 (0000ms, 0461ms total)
T1880 001:390 JLINK_WriteReg(R14, 0x20000001)  returns 0x00 (0000ms, 0461ms total)
T1880 001:390 JLINK_WriteReg(R15 (PC), 0x20000108)  returns 0x00 (0000ms, 0461ms total)
T1880 001:390 JLINK_WriteReg(XPSR, 0x01000000)  returns 0x00 (0000ms, 0461ms total)
T1880 001:390 JLINK_WriteReg(MSP, 0x20000800)  returns 0x00 (0000ms, 0461ms total)
T1880 001:390 JLINK_WriteReg(PSP, 0x20000800)  returns 0x00 (0000ms, 0461ms total)
T1880 001:390 JLINK_WriteReg(CFBP, 0x00000000)  returns 0x00 (0000ms, 0461ms total)
T1880 001:390 JLINK_SetBPEx(Addr = 0x20000000, Type = 0xFFFFFFF2)  returns 0x00000007 (0000ms, 0461ms total)
T1880 001:390 JLINK_Go() -- CPU_ReadMem(4 bytes @ 0xE0001000) -- CPU_WriteMem(4 bytes @ 0xE0001000) (0002ms, 0463ms total)
T1880 001:392 JLINK_IsHalted()  returns FALSE (0001ms, 0464ms total)
T1880 001:394 JLINK_IsHalted()  returns FALSE (0000ms, 0463ms total)
T1880 001:395 JLINK_IsHalted()  returns FALSE (0000ms, 0463ms total)
T1880 001:398 JLINK_IsHalted()  returns FALSE (0000ms, 0463ms total)
T1880 001:399 JLINK_IsHalted() -- CPU_ReadMem(2 bytes @ 0x20000000)  returns TRUE (0002ms, 0465ms total)
T1880 001:401 JLINK_ReadReg(R15 (PC))  returns 0x20000000 (0001ms, 0464ms total)
T1880 001:402 JLINK_ClrBPEx(BPHandle = 0x00000007)  returns 0x00 (0000ms, 0464ms total)
T1880 001:402 JLINK_ReadReg(R0)  returns 0x00000000 (0000ms, 0464ms total)
T1880 001:402 JLINK_WriteMem(0x200001C4, 0x023C Bytes, ...) - Data: 11 40 08 43 39 02 12 12 11 40 08 43 61 78 09 01 ... -- CPU_WriteMem(572 bytes @ 0x200001C4)  returns 0x23C (0002ms, 0466ms total)
T1880 001:404 JLINK_WriteMem(0x20000400, 0x01C4 Bytes, ...) - Data: 9B 6A 9B 07 9B 0F 01 2B 04 D0 02 2B 04 D0 03 2B ... -- CPU_WriteMem(452 bytes @ 0x20000400)  returns 0x1C4 (0003ms, 0469ms total)
T1880 001:407 JLINK_WriteReg(R0, 0x00000C00)  returns 0x00 (0000ms, 0469ms total)
T1880 001:407 JLINK_WriteReg(R1, 0x00000400)  returns 0x00 (0000ms, 0469ms total)
T1880 001:407 JLINK_WriteReg(R2, 0x200001C4)  returns 0x00 (0000ms, 0469ms total)
T1880 001:407 JLINK_WriteReg(R3, 0x00000000)  returns 0x00 (0000ms, 0469ms total)
T1880 001:407 JLINK_WriteReg(R4, 0x00000000)  returns 0x00 (0000ms, 0469ms total)
T1880 001:407 JLINK_WriteReg(R5, 0x00000000)  returns 0x00 (0000ms, 0469ms total)
T1880 001:407 JLINK_WriteReg(R6, 0x00000000)  returns 0x00 (0000ms, 0469ms total)
T1880 001:407 JLINK_WriteReg(R7, 0x00000000)  returns 0x00 (0000ms, 0469ms total)
T1880 001:407 JLINK_WriteReg(R8, 0x00000000)  returns 0x00 (0000ms, 0469ms total)
T1880 001:407 JLINK_WriteReg(R9, 0x200001C0)  returns 0x00 (0000ms, 0469ms total)
T1880 001:407 JLINK_WriteReg(R10, 0x00000000)  returns 0x00 (0000ms, 0469ms total)
T1880 001:407 JLINK_WriteReg(R11, 0x00000000)  returns 0x00 (0000ms, 0469ms total)
T1880 001:407 JLINK_WriteReg(R12, 0x00000000)  returns 0x00 (0000ms, 0469ms total)
T1880 001:407 JLINK_WriteReg(R13 (SP), 0x20000800)  returns 0x00 (0000ms, 0469ms total)
T1880 001:407 JLINK_WriteReg(R14, 0x20000001)  returns 0x00 (0000ms, 0469ms total)
T1880 001:407 JLINK_WriteReg(R15 (PC), 0x20000108)  returns 0x00 (0000ms, 0469ms total)
T1880 001:407 JLINK_WriteReg(XPSR, 0x01000000)  returns 0x00 (0000ms, 0469ms total)
T1880 001:407 JLINK_WriteReg(MSP, 0x20000800)  returns 0x00 (0000ms, 0469ms total)
T1880 001:407 JLINK_WriteReg(PSP, 0x20000800)  returns 0x00 (0000ms, 0469ms total)
T1880 001:407 JLINK_WriteReg(CFBP, 0x00000000)  returns 0x00 (0000ms, 0469ms total)
T1880 001:407 JLINK_SetBPEx(Addr = 0x20000000, Type = 0xFFFFFFF2)  returns 0x00000008 (0000ms, 0469ms total)
T1880 001:407 JLINK_Go() -- CPU_ReadMem(4 bytes @ 0xE0001000) -- CPU_WriteMem(4 bytes @ 0xE0001000) (0002ms, 0471ms total)
T1880 001:409 JLINK_IsHalted()  returns FALSE (0001ms, 0472ms total)
T1880 001:411 JLINK_IsHalted()  returns FALSE (0000ms, 0471ms total)
T1880 001:412 JLINK_IsHalted()  returns FALSE (0000ms, 0471ms total)
T1880 001:413 JLINK_IsHalted()  returns FALSE (0000ms, 0471ms total)
T1880 001:415 JLINK_IsHalted()  returns FALSE (0000ms, 0471ms total)
T1880 001:416 JLINK_IsHalted() -- CPU_ReadMem(2 bytes @ 0x20000000)  returns TRUE (0002ms, 0473ms total)
T1880 001:418 JLINK_ReadReg(R15 (PC))  returns 0x20000000 (0000ms, 0471ms total)
T1880 001:418 JLINK_ClrBPEx(BPHandle = 0x00000008)  returns 0x00 (0000ms, 0471ms total)
T1880 001:418 JLINK_ReadReg(R0)  returns 0x00000000 (0000ms, 0471ms total)
T1880 001:419 JLINK_WriteMem(0x200001C4, 0x023C Bytes, ...) - Data: 00 0A 70 47 00 B5 01 46 0B 00 03 F0 C4 FF 08 17 ... -- CPU_WriteMem(572 bytes @ 0x200001C4)  returns 0x23C (0002ms, 0473ms total)
T1880 001:421 JLINK_WriteMem(0x20000400, 0x01C4 Bytes, ...) - Data: 06 0F 04 2E 06 D0 05 2E 10 D0 06 2E 22 D0 07 2E ... -- CPU_WriteMem(452 bytes @ 0x20000400)  returns 0x1C4 (0002ms, 0475ms total)
T1880 001:423 JLINK_WriteReg(R0, 0x00001000)  returns 0x00 (0000ms, 0475ms total)
T1880 001:423 JLINK_WriteReg(R1, 0x00000400)  returns 0x00 (0000ms, 0475ms total)
T1880 001:423 JLINK_WriteReg(R2, 0x200001C4)  returns 0x00 (0000ms, 0475ms total)
T1880 001:423 JLINK_WriteReg(R3, 0x00000000)  returns 0x00 (0000ms, 0475ms total)
T1880 001:423 JLINK_WriteReg(R4, 0x00000000)  returns 0x00 (0000ms, 0475ms total)
T1880 001:423 JLINK_WriteReg(R5, 0x00000000)  returns 0x00 (0000ms, 0475ms total)
T1880 001:423 JLINK_WriteReg(R6, 0x00000000)  returns 0x00 (0000ms, 0475ms total)
T1880 001:423 JLINK_WriteReg(R7, 0x00000000)  returns 0x00 (0001ms, 0476ms total)
T1880 001:424 JLINK_WriteReg(R8, 0x00000000)  returns 0x00 (0000ms, 0476ms total)
T1880 001:424 JLINK_WriteReg(R9, 0x200001C0)  returns 0x00 (0000ms, 0476ms total)
T1880 001:424 JLINK_WriteReg(R10, 0x00000000)  returns 0x00 (0000ms, 0476ms total)
T1880 001:424 JLINK_WriteReg(R11, 0x00000000)  returns 0x00 (0000ms, 0476ms total)
T1880 001:424 JLINK_WriteReg(R12, 0x00000000)  returns 0x00 (0000ms, 0476ms total)
T1880 001:424 JLINK_WriteReg(R13 (SP), 0x20000800)  returns 0x00 (0000ms, 0476ms total)
T1880 001:424 JLINK_WriteReg(R14, 0x20000001)  returns 0x00 (0000ms, 0476ms total)
T1880 001:424 JLINK_WriteReg(R15 (PC), 0x20000108)  returns 0x00 (0000ms, 0476ms total)
T1880 001:424 JLINK_WriteReg(XPSR, 0x01000000)  returns 0x00 (0000ms, 0476ms total)
T1880 001:424 JLINK_WriteReg(MSP, 0x20000800)  returns 0x00 (0000ms, 0476ms total)
T1880 001:424 JLINK_WriteReg(PSP, 0x20000800)  returns 0x00 (0000ms, 0476ms total)
T1880 001:424 JLINK_WriteReg(CFBP, 0x00000000)  returns 0x00 (0000ms, 0476ms total)
T1880 001:424 JLINK_SetBPEx(Addr = 0x20000000, Type = 0xFFFFFFF2)  returns 0x00000009 (0000ms, 0476ms total)
T1880 001:424 JLINK_Go() -- CPU_ReadMem(4 bytes @ 0xE0001000) -- CPU_WriteMem(4 bytes @ 0xE0001000) (0002ms, 0478ms total)
T1880 001:426 JLINK_IsHalted()  returns FALSE (0001ms, 0479ms total)
T1880 001:428 JLINK_IsHalted()  returns FALSE (0000ms, 0478ms total)
T1880 001:429 JLINK_IsHalted()  returns FALSE (0000ms, 0478ms total)
T1880 001:430 JLINK_IsHalted()  returns FALSE (0000ms, 0478ms total)
T1880 001:431 JLINK_IsHalted()  returns FALSE (0000ms, 0478ms total)
T1880 001:432 JLINK_IsHalted()  returns FALSE (0000ms, 0478ms total)
T1880 001:433 JLINK_IsHalted() -- CPU_ReadMem(2 bytes @ 0x20000000)  returns TRUE (0003ms, 0481ms total)
T1880 001:436 JLINK_ReadReg(R15 (PC))  returns 0x20000000 (0000ms, 0478ms total)
T1880 001:436 JLINK_ClrBPEx(BPHandle = 0x00000009)  returns 0x00 (0000ms, 0478ms total)
T1880 001:436 JLINK_ReadReg(R0)  returns 0x00000000 (0000ms, 0478ms total)
T1880 001:436 JLINK_WriteMem(0x200001C4, 0x023C Bytes, ...) - Data: FF F7 BE FC 04 46 01 E0 00 24 00 BF 00 BF 20 46 ... -- CPU_WriteMem(572 bytes @ 0x200001C4)  returns 0x23C (0003ms, 0481ms total)
T1880 001:439 JLINK_WriteMem(0x20000400, 0x01C4 Bytes, ...) - Data: 79 FC 7E 48 40 38 C0 68 C0 0A C0 02 29 02 08 43 ... -- CPU_WriteMem(452 bytes @ 0x20000400)  returns 0x1C4 (0002ms, 0483ms total)
T1880 001:441 JLINK_WriteReg(R0, 0x00001400)  returns 0x00 (0000ms, 0483ms total)
T1880 001:441 JLINK_WriteReg(R1, 0x00000400)  returns 0x00 (0000ms, 0483ms total)
T1880 001:441 JLINK_WriteReg(R2, 0x200001C4)  returns 0x00 (0000ms, 0483ms total)
T1880 001:441 JLINK_WriteReg(R3, 0x00000000)  returns 0x00 (0000ms, 0483ms total)
T1880 001:441 JLINK_WriteReg(R4, 0x00000000)  returns 0x00 (0000ms, 0483ms total)
T1880 001:441 JLINK_WriteReg(R5, 0x00000000)  returns 0x00 (0000ms, 0483ms total)
T1880 001:441 JLINK_WriteReg(R6, 0x00000000)  returns 0x00 (0000ms, 0483ms total)
T1880 001:441 JLINK_WriteReg(R7, 0x00000000)  returns 0x00 (0000ms, 0483ms total)
T1880 001:441 JLINK_WriteReg(R8, 0x00000000)  returns 0x00 (0000ms, 0483ms total)
T1880 001:441 JLINK_WriteReg(R9, 0x200001C0)  returns 0x00 (0000ms, 0483ms total)
T1880 001:441 JLINK_WriteReg(R10, 0x00000000)  returns 0x00 (0000ms, 0483ms total)
T1880 001:441 JLINK_WriteReg(R11, 0x00000000)  returns 0x00 (0000ms, 0483ms total)
T1880 001:441 JLINK_WriteReg(R12, 0x00000000)  returns 0x00 (0000ms, 0483ms total)
T1880 001:441 JLINK_WriteReg(R13 (SP), 0x20000800)  returns 0x00 (0000ms, 0483ms total)
T1880 001:441 JLINK_WriteReg(R14, 0x20000001)  returns 0x00 (0000ms, 0483ms total)
T1880 001:441 JLINK_WriteReg(R15 (PC), 0x20000108)  returns 0x00 (0000ms, 0483ms total)
T1880 001:441 JLINK_WriteReg(XPSR, 0x01000000)  returns 0x00 (0000ms, 0483ms total)
T1880 001:441 JLINK_WriteReg(MSP, 0x20000800)  returns 0x00 (0000ms, 0483ms total)
T1880 001:441 JLINK_WriteReg(PSP, 0x20000800)  returns 0x00 (0000ms, 0483ms total)
T1880 001:441 JLINK_WriteReg(CFBP, 0x00000000)  returns 0x00 (0000ms, 0483ms total)
T1880 001:441 JLINK_SetBPEx(Addr = 0x20000000, Type = 0xFFFFFFF2)  returns 0x0000000A (0000ms, 0483ms total)
T1880 001:441 JLINK_Go() -- CPU_ReadMem(4 bytes @ 0xE0001000) -- CPU_WriteMem(4 bytes @ 0xE0001000) (0003ms, 0486ms total)
T1880 001:444 JLINK_IsHalted()  returns FALSE (0001ms, 0487ms total)
T1880 001:446 JLINK_IsHalted()  returns FALSE (0000ms, 0486ms total)
T1880 001:447 JLINK_IsHalted()  returns FALSE (0000ms, 0486ms total)
T1880 001:448 JLINK_IsHalted()  returns FALSE (0000ms, 0486ms total)
T1880 001:449 JLINK_IsHalted()  returns FALSE (0000ms, 0486ms total)
T1880 001:450 JLINK_IsHalted()  returns FALSE (0000ms, 0486ms total)
T1880 001:451 JLINK_IsHalted() -- CPU_ReadMem(2 bytes @ 0x20000000)  returns TRUE (0002ms, 0488ms total)
T1880 001:453 JLINK_ReadReg(R15 (PC))  returns 0x20000000 (0000ms, 0486ms total)
T1880 001:453 JLINK_ClrBPEx(BPHandle = 0x0000000A)  returns 0x00 (0000ms, 0486ms total)
T1880 001:453 JLINK_ReadReg(R0)  returns 0x00000000 (0000ms, 0486ms total)
T1880 001:454 JLINK_WriteMem(0x200001C4, 0x023C Bytes, ...) - Data: 1F 21 0D 1A 28 46 70 BD 01 46 01 20 88 40 70 47 ... -- CPU_WriteMem(572 bytes @ 0x200001C4)  returns 0x23C (0003ms, 0489ms total)
T1880 001:457 JLINK_WriteMem(0x20000400, 0x01C4 Bytes, ...) - Data: 80 38 C0 6A 0A 49 08 60 70 47 01 78 00 29 04 D0 ... -- CPU_WriteMem(452 bytes @ 0x20000400)  returns 0x1C4 (0002ms, 0491ms total)
T1880 001:459 JLINK_WriteReg(R0, 0x00001800)  returns 0x00 (0000ms, 0491ms total)
T1880 001:459 JLINK_WriteReg(R1, 0x00000400)  returns 0x00 (0000ms, 0491ms total)
T1880 001:459 JLINK_WriteReg(R2, 0x200001C4)  returns 0x00 (0000ms, 0491ms total)
T1880 001:459 JLINK_WriteReg(R3, 0x00000000)  returns 0x00 (0000ms, 0491ms total)
T1880 001:459 JLINK_WriteReg(R4, 0x00000000)  returns 0x00 (0000ms, 0491ms total)
T1880 001:459 JLINK_WriteReg(R5, 0x00000000)  returns 0x00 (0000ms, 0491ms total)
T1880 001:459 JLINK_WriteReg(R6, 0x00000000)  returns 0x00 (0000ms, 0491ms total)
T1880 001:459 JLINK_WriteReg(R7, 0x00000000)  returns 0x00 (0000ms, 0491ms total)
T1880 001:459 JLINK_WriteReg(R8, 0x00000000)  returns 0x00 (0000ms, 0491ms total)
T1880 001:459 JLINK_WriteReg(R9, 0x200001C0)  returns 0x00 (0000ms, 0491ms total)
T1880 001:459 JLINK_WriteReg(R10, 0x00000000)  returns 0x00 (0000ms, 0491ms total)
T1880 001:459 JLINK_WriteReg(R11, 0x00000000)  returns 0x00 (0000ms, 0491ms total)
T1880 001:459 JLINK_WriteReg(R12, 0x00000000)  returns 0x00 (0000ms, 0491ms total)
T1880 001:459 JLINK_WriteReg(R13 (SP), 0x20000800)  returns 0x00 (0000ms, 0491ms total)
T1880 001:459 JLINK_WriteReg(R14, 0x20000001)  returns 0x00 (0000ms, 0491ms total)
T1880 001:459 JLINK_WriteReg(R15 (PC), 0x20000108)  returns 0x00 (0000ms, 0491ms total)
T1880 001:459 JLINK_WriteReg(XPSR, 0x01000000)  returns 0x00 (0000ms, 0491ms total)
T1880 001:459 JLINK_WriteReg(MSP, 0x20000800)  returns 0x00 (0000ms, 0491ms total)
T1880 001:459 JLINK_WriteReg(PSP, 0x20000800)  returns 0x00 (0000ms, 0491ms total)
T1880 001:459 JLINK_WriteReg(CFBP, 0x00000000)  returns 0x00 (0000ms, 0491ms total)
T1880 001:459 JLINK_SetBPEx(Addr = 0x20000000, Type = 0xFFFFFFF2)  returns 0x0000000B (0000ms, 0491ms total)
T1880 001:459 JLINK_Go() -- CPU_ReadMem(4 bytes @ 0xE0001000) -- CPU_WriteMem(4 bytes @ 0xE0001000) (0002ms, 0493ms total)
T1880 001:461 JLINK_IsHalted()  returns FALSE (0001ms, 0494ms total)
T1880 001:463 JLINK_IsHalted()  returns FALSE (0000ms, 0493ms total)
T1880 001:464 JLINK_IsHalted()  returns FALSE (0000ms, 0493ms total)
T1880 001:465 JLINK_IsHalted()  returns FALSE (0000ms, 0493ms total)
T1880 001:466 JLINK_IsHalted()  returns FALSE (0000ms, 0493ms total)
T1880 001:467 JLINK_IsHalted()  returns FALSE (0000ms, 0493ms total)
T1880 001:468 JLINK_IsHalted() -- CPU_ReadMem(2 bytes @ 0x20000000)  returns TRUE (0002ms, 0495ms total)
T1880 001:470 JLINK_ReadReg(R15 (PC))  returns 0x20000000 (0000ms, 0493ms total)
T1880 001:470 JLINK_ClrBPEx(BPHandle = 0x0000000B)  returns 0x00 (0000ms, 0493ms total)
T1880 001:470 JLINK_ReadReg(R0)  returns 0x00000000 (0000ms, 0493ms total)
T1880 001:471 JLINK_WriteMem(0x200001C4, 0x023C Bytes, ...) - Data: 19 4B 9A 63 1A 46 52 6B 02 43 5A 63 01 22 00 2A ... -- CPU_WriteMem(572 bytes @ 0x200001C4)  returns 0x23C (0003ms, 0496ms total)
T1880 001:474 JLINK_WriteMem(0x20000400, 0x01C4 Bytes, ...) - Data: 20 60 70 BD 70 B5 04 46 0D 46 01 21 20 46 00 F0 ... -- CPU_WriteMem(452 bytes @ 0x20000400)  returns 0x1C4 (0002ms, 0498ms total)
T1880 001:476 JLINK_WriteReg(R0, 0x00001C00)  returns 0x00 (0000ms, 0498ms total)
T1880 001:476 JLINK_WriteReg(R1, 0x00000400)  returns 0x00 (0000ms, 0498ms total)
T1880 001:476 JLINK_WriteReg(R2, 0x200001C4)  returns 0x00 (0000ms, 0498ms total)
T1880 001:476 JLINK_WriteReg(R3, 0x00000000)  returns 0x00 (0000ms, 0498ms total)
T1880 001:476 JLINK_WriteReg(R4, 0x00000000)  returns 0x00 (0000ms, 0498ms total)
T1880 001:476 JLINK_WriteReg(R5, 0x00000000)  returns 0x00 (0000ms, 0498ms total)
T1880 001:476 JLINK_WriteReg(R6, 0x00000000)  returns 0x00 (0000ms, 0498ms total)
T1880 001:476 JLINK_WriteReg(R7, 0x00000000)  returns 0x00 (0000ms, 0498ms total)
T1880 001:476 JLINK_WriteReg(R8, 0x00000000)  returns 0x00 (0000ms, 0498ms total)
T1880 001:476 JLINK_WriteReg(R9, 0x200001C0)  returns 0x00 (0000ms, 0498ms total)
T1880 001:476 JLINK_WriteReg(R10, 0x00000000)  returns 0x00 (0000ms, 0498ms total)
T1880 001:476 JLINK_WriteReg(R11, 0x00000000)  returns 0x00 (0000ms, 0498ms total)
T1880 001:476 JLINK_WriteReg(R12, 0x00000000)  returns 0x00 (0000ms, 0498ms total)
T1880 001:476 JLINK_WriteReg(R13 (SP), 0x20000800)  returns 0x00 (0000ms, 0498ms total)
T1880 001:476 JLINK_WriteReg(R14, 0x20000001)  returns 0x00 (0000ms, 0498ms total)
T1880 001:476 JLINK_WriteReg(R15 (PC), 0x20000108)  returns 0x00 (0000ms, 0498ms total)
T1880 001:476 JLINK_WriteReg(XPSR, 0x01000000)  returns 0x00 (0000ms, 0498ms total)
T1880 001:476 JLINK_WriteReg(MSP, 0x20000800)  returns 0x00 (0000ms, 0498ms total)
T1880 001:476 JLINK_WriteReg(PSP, 0x20000800)  returns 0x00 (0000ms, 0498ms total)
T1880 001:476 JLINK_WriteReg(CFBP, 0x00000000)  returns 0x00 (0000ms, 0498ms total)
T1880 001:476 JLINK_SetBPEx(Addr = 0x20000000, Type = 0xFFFFFFF2)  returns 0x0000000C (0000ms, 0498ms total)
T1880 001:476 JLINK_Go() -- CPU_ReadMem(4 bytes @ 0xE0001000) -- CPU_WriteMem(4 bytes @ 0xE0001000) (0002ms, 0500ms total)
T1880 001:478 JLINK_IsHalted()  returns FALSE (0001ms, 0501ms total)
T1880 001:480 JLINK_IsHalted()  returns FALSE (0000ms, 0500ms total)
T1880 001:481 JLINK_IsHalted()  returns FALSE (0000ms, 0500ms total)
T1880 001:482 JLINK_IsHalted()  returns FALSE (0000ms, 0500ms total)
T1880 001:483 JLINK_IsHalted()  returns FALSE (0000ms, 0500ms total)
T1880 001:484 JLINK_IsHalted()  returns FALSE (0000ms, 0500ms total)
T1880 001:485 JLINK_IsHalted() -- CPU_ReadMem(2 bytes @ 0x20000000)  returns TRUE (0002ms, 0502ms total)
T1880 001:487 JLINK_ReadReg(R15 (PC))  returns 0x20000000 (0000ms, 0500ms total)
T1880 001:487 JLINK_ClrBPEx(BPHandle = 0x0000000C)  returns 0x00 (0000ms, 0500ms total)
T1880 001:487 JLINK_ReadReg(R0)  returns 0x00000000 (0000ms, 0500ms total)
T1880 001:488 JLINK_WriteMem(0x200001C4, 0x023C Bytes, ...) - Data: 0E E0 01 20 08 90 20 24 00 25 09 E0 03 20 08 90 ... -- CPU_WriteMem(572 bytes @ 0x200001C4)  returns 0x23C (0002ms, 0502ms total)
T1880 001:490 JLINK_WriteMem(0x20000400, 0x01C4 Bytes, ...) - Data: 08 43 20 65 20 6D 01 21 08 43 20 65 70 BD 70 B5 ... -- CPU_WriteMem(452 bytes @ 0x20000400)  returns 0x1C4 (0002ms, 0504ms total)
T1880 001:492 JLINK_WriteReg(R0, 0x00002000)  returns 0x00 (0000ms, 0504ms total)
T1880 001:492 JLINK_WriteReg(R1, 0x00000400)  returns 0x00 (0000ms, 0504ms total)
T1880 001:492 JLINK_WriteReg(R2, 0x200001C4)  returns 0x00 (0000ms, 0504ms total)
T1880 001:492 JLINK_WriteReg(R3, 0x00000000)  returns 0x00 (0000ms, 0504ms total)
T1880 001:492 JLINK_WriteReg(R4, 0x00000000)  returns 0x00 (0000ms, 0504ms total)
T1880 001:492 JLINK_WriteReg(R5, 0x00000000)  returns 0x00 (0000ms, 0504ms total)
T1880 001:492 JLINK_WriteReg(R6, 0x00000000)  returns 0x00 (0000ms, 0504ms total)
T1880 001:492 JLINK_WriteReg(R7, 0x00000000)  returns 0x00 (0000ms, 0504ms total)
T1880 001:492 JLINK_WriteReg(R8, 0x00000000)  returns 0x00 (0000ms, 0504ms total)
T1880 001:492 JLINK_WriteReg(R9, 0x200001C0)  returns 0x00 (0000ms, 0504ms total)
T1880 001:492 JLINK_WriteReg(R10, 0x00000000)  returns 0x00 (0000ms, 0504ms total)
T1880 001:492 JLINK_WriteReg(R11, 0x00000000)  returns 0x00 (0000ms, 0504ms total)
T1880 001:492 JLINK_WriteReg(R12, 0x00000000)  returns 0x00 (0000ms, 0504ms total)
T1880 001:492 JLINK_WriteReg(R13 (SP), 0x20000800)  returns 0x00 (0000ms, 0504ms total)
T1880 001:492 JLINK_WriteReg(R14, 0x20000001)  returns 0x00 (0000ms, 0504ms total)
T1880 001:492 JLINK_WriteReg(R15 (PC), 0x20000108)  returns 0x00 (0000ms, 0504ms total)
T1880 001:493 JLINK_WriteReg(XPSR, 0x01000000)  returns 0x00 (0000ms, 0505ms total)
T1880 001:493 JLINK_WriteReg(MSP, 0x20000800)  returns 0x00 (0000ms, 0505ms total)
T1880 001:493 JLINK_WriteReg(PSP, 0x20000800)  returns 0x00 (0000ms, 0505ms total)
T1880 001:493 JLINK_WriteReg(CFBP, 0x00000000)  returns 0x00 (0000ms, 0505ms total)
T1880 001:493 JLINK_SetBPEx(Addr = 0x20000000, Type = 0xFFFFFFF2)  returns 0x0000000D (0000ms, 0505ms total)
T1880 001:493 JLINK_Go() -- CPU_ReadMem(4 bytes @ 0xE0001000) -- CPU_WriteMem(4 bytes @ 0xE0001000) (0002ms, 0507ms total)
T1880 001:495 JLINK_IsHalted()  returns FALSE (0000ms, 0507ms total)
T1880 001:496 JLINK_IsHalted()  returns FALSE (0000ms, 0507ms total)
T1880 001:497 JLINK_IsHalted()  returns FALSE (0000ms, 0507ms total)
T1880 001:498 JLINK_IsHalted()  returns FALSE (0000ms, 0507ms total)
T1880 001:499 JLINK_IsHalted()  returns FALSE (0000ms, 0507ms total)
T1880 001:500 JLINK_IsHalted()  returns FALSE (0000ms, 0507ms total)
T1880 001:501 JLINK_IsHalted()  returns FALSE (0000ms, 0507ms total)
T1880 001:502 JLINK_IsHalted() -- CPU_ReadMem(2 bytes @ 0x20000000)  returns TRUE (0002ms, 0509ms total)
T1880 001:504 JLINK_ReadReg(R15 (PC))  returns 0x20000000 (0000ms, 0507ms total)
T1880 001:504 JLINK_ClrBPEx(BPHandle = 0x0000000D)  returns 0x00 (0000ms, 0507ms total)
T1880 001:504 JLINK_ReadReg(R0)  returns 0x00000000 (0000ms, 0507ms total)
T1880 001:505 JLINK_WriteMem(0x200001C4, 0x023C Bytes, ...) - Data: 22 68 82 43 0A 43 22 60 00 BF 00 2F 03 D1 E6 48 ... -- CPU_WriteMem(572 bytes @ 0x200001C4)  returns 0x23C (0002ms, 0509ms total)
T1880 001:507 JLINK_WriteMem(0x20000400, 0x01C4 Bytes, ...) - Data: 05 20 08 70 69 E7 E6 E0 60 88 10 23 18 40 00 28 ... -- CPU_WriteMem(452 bytes @ 0x20000400)  returns 0x1C4 (0002ms, 0511ms total)
T1880 001:509 JLINK_WriteReg(R0, 0x00002400)  returns 0x00 (0000ms, 0511ms total)
T1880 001:509 JLINK_WriteReg(R1, 0x00000400)  returns 0x00 (0000ms, 0511ms total)
T1880 001:509 JLINK_WriteReg(R2, 0x200001C4)  returns 0x00 (0000ms, 0511ms total)
T1880 001:509 JLINK_WriteReg(R3, 0x00000000)  returns 0x00 (0000ms, 0511ms total)
T1880 001:509 JLINK_WriteReg(R4, 0x00000000)  returns 0x00 (0000ms, 0511ms total)
T1880 001:509 JLINK_WriteReg(R5, 0x00000000)  returns 0x00 (0000ms, 0511ms total)
T1880 001:510 JLINK_WriteReg(R6, 0x00000000)  returns 0x00 (0000ms, 0512ms total)
T1880 001:510 JLINK_WriteReg(R7, 0x00000000)  returns 0x00 (0000ms, 0512ms total)
T1880 001:510 JLINK_WriteReg(R8, 0x00000000)  returns 0x00 (0000ms, 0512ms total)
T1880 001:510 JLINK_WriteReg(R9, 0x200001C0)  returns 0x00 (0000ms, 0512ms total)
T1880 001:510 JLINK_WriteReg(R10, 0x00000000)  returns 0x00 (0000ms, 0512ms total)
T1880 001:510 JLINK_WriteReg(R11, 0x00000000)  returns 0x00 (0000ms, 0512ms total)
T1880 001:510 JLINK_WriteReg(R12, 0x00000000)  returns 0x00 (0000ms, 0512ms total)
T1880 001:510 JLINK_WriteReg(R13 (SP), 0x20000800)  returns 0x00 (0000ms, 0512ms total)
T1880 001:510 JLINK_WriteReg(R14, 0x20000001)  returns 0x00 (0000ms, 0512ms total)
T1880 001:510 JLINK_WriteReg(R15 (PC), 0x20000108)  returns 0x00 (0000ms, 0512ms total)
T1880 001:510 JLINK_WriteReg(XPSR, 0x01000000)  returns 0x00 (0000ms, 0512ms total)
T1880 001:510 JLINK_WriteReg(MSP, 0x20000800)  returns 0x00 (0000ms, 0512ms total)
T1880 001:510 JLINK_WriteReg(PSP, 0x20000800)  returns 0x00 (0000ms, 0512ms total)
T1880 001:510 JLINK_WriteReg(CFBP, 0x00000000)  returns 0x00 (0000ms, 0512ms total)
T1880 001:510 JLINK_SetBPEx(Addr = 0x20000000, Type = 0xFFFFFFF2)  returns 0x0000000E (0000ms, 0512ms total)
T1880 001:510 JLINK_Go() -- CPU_ReadMem(4 bytes @ 0xE0001000) -- CPU_WriteMem(4 bytes @ 0xE0001000) (0002ms, 0514ms total)
T1880 001:512 JLINK_IsHalted()  returns FALSE (0000ms, 0514ms total)
T1880 001:516 JLINK_IsHalted()  returns FALSE (0000ms, 0514ms total)
T1880 001:517 JLINK_IsHalted()  returns FALSE (0000ms, 0514ms total)
T1880 001:520 JLINK_IsHalted() -- CPU_ReadMem(2 bytes @ 0x20000000)  returns TRUE (0002ms, 0516ms total)
T1880 001:522 JLINK_ReadReg(R15 (PC))  returns 0x20000000 (0000ms, 0514ms total)
T1880 001:522 JLINK_ClrBPEx(BPHandle = 0x0000000E)  returns 0x00 (0000ms, 0514ms total)
T1880 001:522 JLINK_ReadReg(R0)  returns 0x00000000 (0000ms, 0514ms total)
T1880 001:523 JLINK_WriteMem(0x200001C4, 0x023C Bytes, ...) - Data: 09 20 08 70 05 E0 04 20 C0 43 48 70 09 20 08 70 ... -- CPU_WriteMem(572 bytes @ 0x200001C4)  returns 0x23C (0002ms, 0516ms total)
T1880 001:525 JLINK_WriteMem(0x20000400, 0x01C4 Bytes, ...) - Data: 08 46 00 F0 27 F9 FF F7 3D FF 23 21 9A 48 FF F7 ... -- CPU_WriteMem(452 bytes @ 0x20000400)  returns 0x1C4 (0002ms, 0518ms total)
T1880 001:527 JLINK_WriteReg(R0, 0x00002800)  returns 0x00 (0000ms, 0518ms total)
T1880 001:527 JLINK_WriteReg(R1, 0x00000400)  returns 0x00 (0000ms, 0518ms total)
T1880 001:527 JLINK_WriteReg(R2, 0x200001C4)  returns 0x00 (0000ms, 0518ms total)
T1880 001:527 JLINK_WriteReg(R3, 0x00000000)  returns 0x00 (0001ms, 0519ms total)
T1880 001:528 JLINK_WriteReg(R4, 0x00000000)  returns 0x00 (0000ms, 0519ms total)
T1880 001:528 JLINK_WriteReg(R5, 0x00000000)  returns 0x00 (0000ms, 0519ms total)
T1880 001:528 JLINK_WriteReg(R6, 0x00000000)  returns 0x00 (0000ms, 0519ms total)
T1880 001:528 JLINK_WriteReg(R7, 0x00000000)  returns 0x00 (0000ms, 0519ms total)
T1880 001:528 JLINK_WriteReg(R8, 0x00000000)  returns 0x00 (0000ms, 0519ms total)
T1880 001:528 JLINK_WriteReg(R9, 0x200001C0)  returns 0x00 (0000ms, 0519ms total)
T1880 001:528 JLINK_WriteReg(R10, 0x00000000)  returns 0x00 (0000ms, 0519ms total)
T1880 001:528 JLINK_WriteReg(R11, 0x00000000)  returns 0x00 (0000ms, 0519ms total)
T1880 001:528 JLINK_WriteReg(R12, 0x00000000)  returns 0x00 (0000ms, 0519ms total)
T1880 001:528 JLINK_WriteReg(R13 (SP), 0x20000800)  returns 0x00 (0000ms, 0519ms total)
T1880 001:528 JLINK_WriteReg(R14, 0x20000001)  returns 0x00 (0000ms, 0519ms total)
T1880 001:528 JLINK_WriteReg(R15 (PC), 0x20000108)  returns 0x00 (0000ms, 0519ms total)
T1880 001:528 JLINK_WriteReg(XPSR, 0x01000000)  returns 0x00 (0000ms, 0519ms total)
T1880 001:528 JLINK_WriteReg(MSP, 0x20000800)  returns 0x00 (0000ms, 0519ms total)
T1880 001:528 JLINK_WriteReg(PSP, 0x20000800)  returns 0x00 (0000ms, 0519ms total)
T1880 001:528 JLINK_WriteReg(CFBP, 0x00000000)  returns 0x00 (0000ms, 0519ms total)
T1880 001:528 JLINK_SetBPEx(Addr = 0x20000000, Type = 0xFFFFFFF2)  returns 0x0000000F (0000ms, 0519ms total)
T1880 001:528 JLINK_Go() -- CPU_ReadMem(4 bytes @ 0xE0001000) -- CPU_WriteMem(4 bytes @ 0xE0001000) (0002ms, 0521ms total)
T1880 001:530 JLINK_IsHalted()  returns FALSE (0001ms, 0522ms total)
T1880 001:532 JLINK_IsHalted()  returns FALSE (0000ms, 0521ms total)
T1880 001:533 JLINK_IsHalted()  returns FALSE (0000ms, 0521ms total)
T1880 001:534 JLINK_IsHalted()  returns FALSE (0000ms, 0521ms total)
T1880 001:535 JLINK_IsHalted()  returns FALSE (0000ms, 0521ms total)
T1880 001:536 JLINK_IsHalted()  returns FALSE (0000ms, 0521ms total)
T1880 001:537 JLINK_IsHalted() -- CPU_ReadMem(2 bytes @ 0x20000000)  returns TRUE (0003ms, 0524ms total)
T1880 001:540 JLINK_ReadReg(R15 (PC))  returns 0x20000000 (0000ms, 0521ms total)
